(1620807235.135072) can0 09F8027F#00FCFFFF0000FFFF
(1620807235.135421) can0 09F8017F#3E17B322B320590D
(1620807235.136113) can0 09F11280#003D5CFF7F3005FD
(1620807235.136667) can0 0DF11380#0052A10C0000FFFF
(1620807235.236058) can0 09F8027F#00FCFFFF0000FFFF
(1620807235.236531) can0 09F8017F#3E17B322B320590D
(1620807235.237095) can0 09F11280#00425CFF7F3005FD
(1620807235.237671) can0 0DF11380#007DDB0C0000FFFF
(1620807235.384981) can0 09F8027F#00FCFFFF0000FFFF
(1620807235.385542) can0 09F8017F#3E17B322B320590D
(1620807235.386042) can0 09F11280#00455CFF7F3005FD
(1620807235.386772) can0 0DF11380#00DB8A0C0000FFFF
(1620807235.435050) can0 09F8027F#00FCFFFF0000FFFF
(1620807235.435542) can0 09F8017F#3E17B322B320590D
(1620807235.436101) can0 09F11280#00465CFF7F3005FD
(1620807235.436674) can0 0DF11380#0004A70C0000FFFF
(1620807235.536118) can0 09F8027F#00FCFFFF0000FFFF
(1620807235.536574) can0 09F8017F#3E17B322B320590D
(1620807235.537171) can0 09F11280#004A5CFF7F3005FD
(1620807235.537723) can0 0DF11380#006AEE0C0000FFFF
(1620807235.635074) can0 09F8027F#00FCFFFF0000FFFF
(1620807235.635547) can0 09F8017F#3E17B322B320590D
(1620807235.636113) can0 09F11280#004C5CFF7F3005FD
(1620807235.636689) can0 0DF11380#009BBB0C0000FFFF
(1620807235.735146) can0 09F8027F#00FCFFFF0000FFFF
(1620807235.735607) can0 09F8017F#3E17B322B320590D
(1620807235.736173) can0 09F11280#004E5CFF7F3005FD
(1620807235.736735) can0 0DF11380#001CAC0C0000FFFF
(1620807235.737330) can0 0DF8057F#602B004749A008AA
(1620807235.737845) can0 0DF8057F#6111002F81A97841
(1620807235.738481) can0 0DF8057F#62140860815954AF
(1620807235.738952) can0 0DF8057F#639C1B03C0757900
(1620807235.739541) can0 0DF8057F#640000000012FC00
(1620807235.740101) can0 0DF8057F#65C8002C01AC0800
(1620807235.740687) can0 0DF8057F#660000FFFFFFFFFF
(1620807235.741240) can0 19FA047F#609300FF0C02D115
(1620807235.741787) can0 19FA047F#6138551C0C000000
(1620807235.742344) can0 19FA047F#6200F203D1062206
(1620807235.742987) can0 19FA047F#63740E00000000F2
(1620807235.743418) can0 19FA047F#64068B1896389411
(1620807235.744022) can0 19FA047F#6500000000F21117
(1620807235.744582) can0 19FA047F#66045C1F3C0F0000
(1620807235.745128) can0 19FA047F#670000F213681222
(1620807235.745742) can0 19FA047F#6824941100000000
(1620807235.746248) can0 19FA047F#69F251E7287F3474
(1620807235.746866) can0 19FA047F#6A0E00000000F24F
(1620807235.747378) can0 19FA047F#6B5C1F0A4DD80E00
(1620807235.747939) can0 19FA047F#6C000000F258F40C
(1620807235.748535) can0 19FA047F#6D6812F00A000000
(1620807235.749053) can0 19FA047F#6E00F248970B64F3
(1620807235.749647) can0 19FA047F#6F480D00000000F2
(1620807235.750165) can0 19FA047F#700CF3393855800C
(1620807235.750795) can0 19FA047F#7100000000F01668
(1620807235.751313) can0 19FA047F#720335EB34080000
(1620807235.751882) can0 19FA047F#730000F0190B20B6
(1620807235.752436) can0 19FA047F#74B68C0A00000000
(1620807235.753112) can0 19FA047F#75F0FFFFFFFFFFFF
(1620807235.753630) can0 0DF0107F#00F04749A008AA11
(1620807235.754164) can0 19FA037F#00D3C800DC00FF7F
(1620807235.754729) can0 1DF11A7F#00F6FFFF3005FFFF
(1620807235.755309) can0 0DF11980#00FF7F7CD74900FF
(1620807235.836117) can0 09F8027F#00FCFFFF0000FFFF
(1620807235.836611) can0 09F8017F#3E17B322B320590D
(1620807235.837175) can0 09F11280#00515CFF7F3005FD
(1620807235.837747) can0 0DF11380#00398F0C0008AA11
(1620807235.936132) can0 09F8027F#00FCFFFF0000FFFF
(1620807235.936590) can0 09F8017F#3E17B322B320590D
(1620807235.937192) can0 09F11280#00565CFF7F3005FD
(1620807235.937746) can0 0DF11380#00E69B0C0000FFFF
(1620807236.036142) can0 09F8027F#00FCFFFF0000FFFF
(1620807236.036600) can0 09F8017F#3E17B322B320590D
(1620807236.037175) can0 09F11280#00585CFF7F3005FD
(1620807236.037744) can0 0DF11380#00A6A70C0000FFFF
(1620807236.135097) can0 09F8027F#00FCFFFF0000FFFF
(1620807236.135556) can0 09F8017F#3E17B322B320590D
(1620807236.136128) can0 09F11280#005A5CFF7F3005FD
(1620807236.136693) can0 0DF11380#00C3A80C0000FFFF
(1620807236.285044) can0 09F8027F#00FCFFFF0000FFFF
(1620807236.285504) can0 09F8017F#3E17B322B320590D
(1620807236.286111) can0 09F11280#005E5CFF7F3005FD
(1620807236.286667) can0 0DF11380#0013BA0C0000FFFF
(1620807236.335101) can0 09F8027F#00FCFFFF0000FFFF
(1620807236.335567) can0 09F8017F#3E17B322B320590D
(1620807236.336131) can0 09F11280#005F5CFF7F3005FD
(1620807236.336714) can0 0DF11380#0006CA0C0000FFFF
(1620807236.435058) can0 09F8027F#00FCFFFF0000FFFF
(1620807236.435564) can0 09F8017F#3E17B322B320590D
(1620807236.436130) can0 09F11280#00635CFF7F3005FD
(1620807236.436699) can0 0DF11380#0012E00C0000FFFF
(1620807236.536156) can0 09F8027F#00FCFFFF0000FFFF
(1620807236.536608) can0 09F8017F#3E17B322B320590D
(1620807236.537212) can0 09F11280#00685CFF7F3005FD
(1620807236.537767) can0 0DF11380#002EFC0C0000FFFF
(1620807236.636149) can0 09F8027F#00FCFFFF0000FFFF
(1620807236.636608) can0 09F8017F#3E17B322B320590D
(1620807236.637220) can0 09F11280#006B5CFF7F3005FD
(1620807236.637777) can0 0DF11380#003E1D0D0000FFFF
(1620807236.735159) can0 09F8027F#00FCFFFF0000FFFF
(1620807236.735622) can0 09F8017F#3E17B322B320590D
(1620807236.736225) can0 09F11280#00705CFF7F3005FD
(1620807236.736784) can0 0DF11380#006EDC0C0000FFFF
(1620807236.737338) can0 0DF8057F#802B004749B02FAA
(1620807236.737910) can0 0DF8057F#8111002F81A97841
(1620807236.738464) can0 0DF8057F#82140860815954AF
(1620807236.739012) can0 0DF8057F#839C1B03C0757900
(1620807236.739607) can0 0DF8057F#840000000012FC00
(1620807236.740156) can0 0DF8057F#85C8002C01AC0800
(1620807236.740754) can0 0DF8057F#860000FFFFFFFFFF
(1620807236.741309) can0 19FA047F#809300FF0C02D115
(1620807236.741854) can0 19FA047F#8138551C0C000000
(1620807236.742415) can0 19FA047F#8200F203D1062206
(1620807236.742986) can0 19FA047F#83D80E00000000F2
(1620807236.743560) can0 19FA047F#84068B1896389411
(1620807236.744093) can0 19FA047F#8500000000F21117
(1620807236.744664) can0 19FA047F#86045C1F3C0F0000
(1620807236.745211) can0 19FA047F#870000F213681222
(1620807236.745781) can0 19FA047F#8824941100000000
(1620807236.746469) can0 19FA047F#89F251E7287F3474
(1620807236.746826) can0 19FA047F#8A0E00000000F24F
(1620807236.747473) can0 19FA047F#8B5C1F0A4DD80E00
(1620807236.748026) can0 19FA047F#8C000000F258F40C
(1620807236.748580) can0 19FA047F#8D6812F00A000000
(1620807236.749119) can0 19FA047F#8E00F248970B64F3
(1620807236.749721) can0 19FA047F#8F480D00000000F2
(1620807236.750227) can0 19FA047F#900CF3393855800C
(1620807236.750808) can0 19FA047F#9100000000F01668
(1620807236.751360) can0 19FA047F#920335EB98080000
(1620807236.751907) can0 19FA047F#930000F0190B20B6
(1620807236.752513) can0 19FA047F#94B68C0A00000000
(1620807236.753139) can0 19FA047F#95F0FFFFFFFFFFFF
(1620807236.753618) can0 0DF0107F#00F04749B02FAA11
(1620807236.754251) can0 19FA037F#00D3C800DC00FF7F
(1620807236.754774) can0 1DF11A7F#00F6FFFF3005FFFF
(1620807236.755342) can0 0DF11980#00FF7F7FD74700FF
(1620807236.835099) can0 09F8027F#00FCFFFF0000FFFF
(1620807236.835577) can0 09F8017F#3E17B322B320590D
(1620807236.836180) can0 09F11280#00725CFF7F3005FD
(1620807236.836730) can0 0DF11380#00F98C0C002FAA11
(1620807236.936171) can0 09F8027F#00FCFFFF0000FFFF
(1620807236.936625) can0 09F8017F#3E17B322B320590D
(1620807236.937230) can0 09F11280#00755CFF7F3005FD
(1620807236.937762) can0 0DF11380#00D1540C0000FFFF
(1620807237.036180) can0 09F8027F#00FCFFFF0000FFFF
(1620807237.036637) can0 09F8017F#3E17B322B320590D
(1620807237.037210) can0 09F11280#007A5CFF7F3005FD
(1620807237.037780) can0 0DF11380#00556F0C0000FFFF
(1620807237.135138) can0 09F8027F#00FCFFFF0000FFFF
(1620807237.135614) can0 09F8017F#3E17B322B320590D
(1620807237.136165) can0 09F11280#007F5CFF7F3005FD
(1620807237.136725) can0 0DF11380#00DB750C0000FFFF
(1620807237.236224) can0 09F8027F#00FCFFFF0000FFFF
(1620807237.236680) can0 09F8017F#3E17B322B320590D
(1620807237.237284) can0 09F11280#00825CFF7F3005FD
(1620807237.237836) can0 0DF11380#004D5E0C0000FFFF
(1620807237.335122) can0 09F8027F#00FCFFFF0000FFFF
(1620807237.335581) can0 09F8017F#3E17B322B320590D
(1620807237.336191) can0 09F11280#00835CFF7F3005FD
(1620807237.336740) can0 0DF11380#007F780C0000FFFF
(1620807237.435126) can0 09F8027F#00FCFFFF0000FFFF
(1620807237.435585) can0 09F8017F#3E17B322B320590D
(1620807237.436185) can0 09F11280#00865CFF7F3005FD
(1620807237.436749) can0 0DF11380#006F770C0000FFFF
(1620807237.535127) can0 09F8027F#00FCFFFF0000FFFF
(1620807237.535605) can0 09F8017F#3E17B322B320590D
(1620807237.536231) can0 09F11280#008B5CFF7F3005FD
(1620807237.536781) can0 0DF11380#0063480C0000FFFF
(1620807237.635152) can0 09F8027F#00FCFFFF0000FFFF
(1620807237.635633) can0 09F8017F#3E17B322B320590D
(1620807237.636185) can0 09F11280#008D5CFF7F3005FD
(1620807237.636779) can0 0DF11380#00AB5C0C0000FFFF
(1620807237.736282) can0 09F8027F#00FCFFFF0000FFFF
(1620807237.736663) can0 09F8017F#3E17B322B320590D
(1620807237.737358) can0 09F11280#00935CFF7F3005FD
(1620807237.737861) can0 0DF11380#00958F0C0000FFFF
(1620807237.738497) can0 0DF8057F#A02B004749C056AA
(1620807237.738965) can0 0DF8057F#A111002F81A97841
(1620807237.739532) can0 0DF8057F#A2140860815954AF
(1620807237.740080) can0 0DF8057F#A39C1B03C0757900
(1620807237.740656) can0 0DF8057F#A40000000012FC00
(1620807237.741212) can0 0DF8057F#A5C8002C01AC0800
(1620807237.741808) can0 0DF8057F#A60000FFFFFFFFFF
(1620807237.742366) can0 19FA047F#A09300FF0C02D115
(1620807237.742985) can0 19FA047F#A138551C0C000000
(1620807237.743468) can0 19FA047F#A200F203D1062206
(1620807237.744037) can0 19FA047F#A3D80E00000000F2
(1620807237.744587) can0 19FA047F#A4068B1896389411
(1620807237.745150) can0 19FA047F#A500000000F21117
(1620807237.745703) can0 19FA047F#A6045C1F3C0F0000
(1620807237.746250) can0 19FA047F#A70000F213681222
(1620807237.746819) can0 19FA047F#A824941100000000
(1620807237.747377) can0 19FA047F#A9F251E7287F3474
(1620807237.747940) can0 19FA047F#AA0E00000000F24F
(1620807237.748486) can0 19FA047F#AB5C1F0A4DD80E00
(1620807237.749058) can0 19FA047F#AC000000F258F40C
(1620807237.749632) can0 19FA047F#AD68128C0A000000
(1620807237.750181) can0 19FA047F#AE00F248970B64F3
(1620807237.750743) can0 19FA047F#AF480D00000000F2
(1620807237.751297) can0 19FA047F#B00CF3393855800C
(1620807237.751844) can0 19FA047F#B100000000F01668
(1620807237.752406) can0 19FA047F#B20335EB98080000
(1620807237.752994) can0 19FA047F#B30000F0190B20B6
(1620807237.753576) can0 19FA047F#B4B68C0A00000000
(1620807237.754137) can0 19FA047F#B5F0FFFFFFFFFFFF
(1620807237.754770) can0 0DF0107F#00F04749C056AA11
(1620807237.755244) can0 19FA037F#00D3C800DC00FF7F
(1620807237.755855) can0 1DF11A7F#00F6FFFF3005FFFF
(1620807237.756373) can0 0DF11980#00FF7F84D74A00FF
(1620807237.836197) can0 09F8027F#00FCFFFF0000FFFF
(1620807237.836665) can0 09F8017F#3E17B322B320590D
(1620807237.837284) can0 09F11280#00965CFF7F3005FD
(1620807237.837859) can0 0DF11380#00F19C0C0056AA11
(1620807237.936164) can0 09F8027F#00FCFFFF0000FFFF
(1620807237.936645) can0 09F8017F#3E17B322B320590D
(1620807237.937206) can0 09F11280#00995CFF7F3005FD
(1620807237.937772) can0 0DF11380#0041790C0000FFFF
(1620807238.036203) can0 09F8027F#00FCFFFF0000FFFF
(1620807238.036685) can0 09F8017F#3E17B322B320590D
(1620807238.037260) can0 09F11280#009D5CFF7F3005FD
(1620807238.037840) can0 0DF11380#00FDBD0C0000FFFF
(1620807238.136194) can0 09F8027F#00FCFFFF0000FFFF
(1620807238.136676) can0 09F8017F#3E17B322B320590D
(1620807238.137257) can0 09F11280#00A15CFF7F3005FD
(1620807238.137825) can0 0DF11380#00B3E40C0000FFFF
(1620807238.235114) can0 09F8027F#00FCFFFF0000FFFF
(1620807238.235622) can0 09F8017F#3E17B322B320590D
(1620807238.236169) can0 09F11280#00A55CFF7F3005FD
(1620807238.236752) can0 0DF11380#00E61E0D0000FFFF
(1620807238.386184) can0 09F8027F#00FCFFFF0000FFFF
(1620807238.386630) can0 09F8017F#3E17B322B320590D
(1620807238.387238) can0 09F11280#00A75CFF7F3005FD
(1620807238.387800) can0 0DF11380#002B150D0000FFFF
(1620807238.436227) can0 09F8027F#00FCFFFF0000FFFF
(1620807238.436683) can0 09F8017F#3E17B322B320590D
(1620807238.437288) can0 09F11280#00AA5CFF7F3005FD
(1620807238.437848) can0 0DF11380#004F1C0D0000FFFF
(1620807238.536205) can0 09F8027F#00FCFFFF0000FFFF
(1620807238.536703) can0 09F8017F#3E17B322B320590D
(1620807238.537262) can0 09F11280#00AE5CFF7F3005FD
(1620807238.537834) can0 0DF11380#008A770D0000FFFF
(1620807238.636220) can0 09F8027F#00FCFFFF0000FFFF
(1620807238.636679) can0 09F8017F#3E17B322B320590D
(1620807238.637287) can0 09F11280#00B05CFF7F3005FD
(1620807238.637879) can0 0DF11380#006E4E0D0000FFFF
(1620807238.735245) can0 09F8027F#00FCFFFF0000FFFF
(1620807238.735701) can0 09F8017F#3E17B322B320590D
(1620807238.736310) can0 09F11280#00B35CFF7F3005FD
(1620807238.736864) can0 0DF11380#000F210D0000FFFF
(1620807238.737412) can0 0DF8057F#C02B004749D07DAA
(1620807238.737969) can0 0DF8057F#C111002F81A97841
(1620807238.738518) can0 0DF8057F#C2140860815954AF
(1620807238.739072) can0 0DF8057F#C39C1B03C0757900
(1620807238.739653) can0 0DF8057F#C40000000012FC00
(1620807238.740212) can0 0DF8057F#C5C8002C01AC0800
(1620807238.740810) can0 0DF8057F#C60000FFFFFFFFFF
(1620807238.741363) can0 19FA047F#C09300FF0C02D115
(1620807238.741925) can0 19FA047F#C138551C0C000000
(1620807238.742479) can0 19FA047F#C200F203D1062206
(1620807238.743176) can0 19FA047F#C3D80E00000000F2
(1620807238.743525) can0 19FA047F#C4068B1896389411
(1620807238.744149) can0 19FA047F#C500000000F21117
(1620807238.744710) can0 19FA047F#C6045C1F3C0F0000
(1620807238.745375) can0 19FA047F#C70000F213681222
(1620807238.745808) can0 19FA047F#C824941100000000
(1620807238.746518) can0 19FA047F#C9F251E7287F3474
(1620807238.746955) can0 19FA047F#CA0E00000000F24F
(1620807238.747546) can0 19FA047F#CB5C1F0A4DD80E00
(1620807238.748093) can0 19FA047F#CC000000F258F40C
(1620807238.748645) can0 19FA047F#CD68128C0A000000
(1620807238.749185) can0 19FA047F#CE00F248970B64F3
(1620807238.749789) can0 19FA047F#CF480D00000000F2
(1620807238.750298) can0 19FA047F#D00CF3393855800C
(1620807238.750907) can0 19FA047F#D100000000F01668
(1620807238.751458) can0 19FA047F#D20335EB98080000
(1620807238.752000) can0 19FA047F#D30000F0190B20B6
(1620807238.752549) can0 19FA047F#D4B68C0A00000000
(1620807238.753226) can0 19FA047F#D5F0FFFFFFFFFFFF
(1620807238.753657) can0 0DF0107F#00F04749D07DAA11
(1620807238.754297) can0 19FA037F#00D3C800DC00FF7F
(1620807238.754862) can0 1DF11A7F#00F6FFFF3005FFFF
(1620807238.755415) can0 0DF11980#00FF7F86D74900FF
(1620807238.836237) can0 09F8027F#00FCFFFF0000FFFF
(1620807238.836703) can0 09F8017F#3E17B322B320590D
(1620807238.837313) can0 09F11280#00B75CFF7F3005FD
(1620807238.837824) can0 0DF11380#00E33D0D007DAA11
(1620807238.936293) can0 09F8027F#00FCFFFF0000FFFF
(1620807238.936768) can0 09F8017F#3E17B322B320590D
(1620807238.937383) can0 09F11280#00BA5CFF7F3005FD
(1620807238.937900) can0 0DF11380#0062320D0000FFFF
(1620807239.035189) can0 09F8027F#00FCFFFF0000FFFF
(1620807239.035642) can0 09F8017F#3E17B322B320590D
(1620807239.036247) can0 09F11280#00BE5CFF7F3005FD
(1620807239.036809) can0 0DF11380#0080F80C0000FFFF
