  can0  09F8027F   [8]  00 FC FF FF 00 00 FF FF
  can0  09F8017F   [8]  7E 18 B3 22 84 1D 59 0D
  can0  09F11280   [8]  00 56 EF FF 7F 31 05 FD
  can0  0DF11380   [8]  00 8D 95 1D 00 00 FF FF
  can0  09F8027F   [8]  00 FC FF FF 00 00 FF FF
  can0  09F8017F   [8]  7E 18 B3 22 84 1D 59 0D
  can0  09F11280   [8]  00 58 EF FF 7F 31 05 FD
  can0  0DF11380   [8]  00 34 05 1E 00 00 FF FF
  can0  09F8027F   [8]  00 FC FF FF 00 00 FF FF
  can0  09F8017F   [8]  7E 18 B3 22 84 1D 59 0D
  can0  09F11280   [8]  00 57 EF FF 7F 31 05 FD
  can0  0DF11380   [8]  00 91 29 1E 00 00 FF FF
  can0  09F8027F   [8]  00 FC FF FF 00 00 FF FF
  can0  09F8017F   [8]  7E 18 B3 22 84 1D 59 0D
  can0  09F11280   [8]  00 57 EF FF 7F 31 05 FD
  can0  0DF11380   [8]  00 2F 1D 1E 00 00 FF FF
  can0  09F8027F   [8]  00 FC FF FF 00 00 FF FF
  can0  09F8017F   [8]  7E 18 B3 22 84 1D 59 0D
  can0  09F11280   [8]  00 58 EF FF 7F 31 05 FD
  can0  0DF11380   [8]  00 68 1C 1E 00 00 FF FF
  can0  09F8027F   [8]  00 FC FF FF 00 00 FF FF
  can0  09F8017F   [8]  7E 18 B3 22 84 1D 59 0D
  can0  09F11280   [8]  00 5C EF FF 7F 31 05 FD
  can0  0DF11380   [8]  00 7C 2E 1E 00 00 FF FF
  can0  09F8027F   [8]  00 FC FF FF 00 00 FF FF
  can0  09F8017F   [8]  7E 18 B3 22 84 1D 59 0D
  can0  09F11280   [8]  00 5E EF FF 7F 31 05 FD
  can0  0DF11380   [8]  00 F1 5A 1E 00 00 FF FF
  can0  09F8027F   [8]  00 FC FF FF 00 00 FF FF
  can0  09F8017F   [8]  7E 18 B3 22 84 1D 59 0D
  can0  09F11280   [8]  00 62 EF FF 7F 31 05 FD
  can0  0DF11380   [8]  00 71 4C 1E 00 00 FF FF
  can0  09F8027F   [8]  00 FC FF FF 00 00 FF FF
  can0  09F8017F   [8]  7E 18 B3 22 84 1D 59 0D
  can0  09F11280   [8]  00 61 EF FF 7F 31 05 FD
  can0  0DF11380   [8]  00 6F F8 1E 00 00 FF FF
  can0  0DF8057F   [8]  A0 2B 00 55 49 98 E8 2F
  can0  0DF8057F   [8]  A1 1D 80 AF FD 2A C3 41
  can0  0DF8057F   [8]  A2 14 08 60 6B 90 92 F1
  can0  0DF8057F   [8]  A3 9B 1B 03 A0 BA 1C 01
  can0  0DF8057F   [8]  A4 00 00 00 00 12 FC 00
  can0  0DF8057F   [8]  A5 68 01 86 01 AC 08 00
  can0  0DF8057F   [8]  A6 00 00 FF FF FF FF FF
  can0  19FA047F   [8]  A0 87 00 FF 0B 0D E8 0A
  can0  19FA047F   [8]  A1 2E 17 10 0E 00 00 00
  can0  19FA047F   [8]  A2 00 F2 0F AE 0F FF 2C
  can0  19FA047F   [8]  A3 D8 0E 00 00 00 00 F2
  can0  19FA047F   [8]  A4 12 68 21 2D 35 1C 0C
  can0  19FA047F   [8]  A5 00 00 00 00 F2 14 2E
  can0  19FA047F   [8]  A6 08 FF 1D 1C 0C 00 00
  can0  19FA047F   [8]  A7 00 00 F2 1D 00 00 72
  can0  19FA047F   [8]  A8 50 98 08 00 00 00 00
  can0  19FA047F   [8]  A9 F2 42 FF 0E FF 0E 00
  can0  19FA047F   [8]  AA 00 00 00 00 00 F2 52
  can0  19FA047F   [8]  AB 8B 18 F3 39 00 00 00
  can0  19FA047F   [8]  AC 00 00 00 F2 42 FF 0E
  can0  19FA047F   [8]  AD FF 0E 1C 0C 00 00 00
  can0  19FA047F   [8]  AE 00 F2 52 8B 18 F3 39
  can0  19FA047F   [8]  AF 1C 0C 00 00 00 00 F2
  can0  19FA047F   [8]  B0 43 5C 1F 39 37 54 0B
  can0  19FA047F   [8]  B1 00 00 00 00 F2 17 8A
  can0  19FA047F   [8]  B2 27 8A 54 34 08 00 00
  can0  19FA047F   [8]  B3 00 00 F0 FF FF FF FF
  can0  0DF0107F   [8]  00 F0 55 49 98 E8 2F 1D
  can0  19FA037F   [8]  00 D3 68 01 96 00 FF 7F
  can0  1DF11A7F   [8]  00 F6 FF FF 31 05 FF FF
  can0  0DF11980   [8]  00 FF 7F 68 FC EA F9 FF
  can0  09F8027F   [8]  00 FC FF FF 00 00 FF FF
  can0  09F8017F   [8]  7E 18 B3 22 84 1D 59 0D
  can0  09F11280   [8]  00 62 EF FF 7F 31 05 FD
  can0  0DF11380   [8]  00 AF 94 1E 00 E8 2F 1D
  can0  09F8027F   [8]  00 FC FF FF 00 00 FF FF
  can0  09F8017F   [8]  7E 18 B3 22 84 1D 59 0D
  can0  09F11280   [8]  00 64 EF FF 7F 31 05 FD
  can0  0DF11380   [8]  00 A7 9D 1E 00 00 FF FF
  can0  09F8027F   [8]  00 FC FF FF 00 00 FF FF
  can0  09F8017F   [8]  7E 18 B3 22 84 1D 59 0D
  can0  09F11280   [8]  00 63 EF FF 7F 31 05 FD
  can0  0DF11380   [8]  00 CA 91 1E 00 00 FF FF
  can0  09F8027F   [8]  00 FC FF FF 00 00 FF FF
  can0  09F8017F   [8]  7E 18 B3 22 84 1D 59 0D
  can0  09F11280   [8]  00 63 EF FF 7F 31 05 FD
  can0  0DF11380   [8]  00 FA 69 1E 00 00 FF FF
  can0  09F8027F   [8]  00 FC FF FF 00 00 FF FF
  can0  09F8017F   [8]  7E 18 B3 22 84 1D 59 0D
  can0  09F11280   [8]  00 63 EF FF 7F 31 05 FD
  can0  0DF11380   [8]  00 59 A0 1E 00 00 FF FF
  can0  09F8027F   [8]  00 FC FF FF 00 00 FF FF
  can0  09F8017F   [8]  7E 18 B3 22 84 1D 59 0D
  can0  09F11280   [8]  00 65 EF FF 7F 31 05 FD
  can0  0DF11380   [8]  00 48 11 1F 00 00 FF FF
  can0  09F8027F   [8]  00 FC FF FF 00 00 FF FF
  can0  09F8017F   [8]  7E 18 B3 22 84 1D 59 0D
  can0  09F11280   [8]  00 68 EF FF 7F 31 05 FD
  can0  0DF11380   [8]  00 69 1A 1F 00 00 FF FF
  can0  09F8027F   [8]  00 FC FF FF 00 00 FF FF
  can0  09F8017F   [8]  7E 18 B3 22 84 1D 59 0D
  can0  09F11280   [8]  00 65 EF FF 7F 31 05 FD
  can0  0DF11380   [8]  00 FD 0D 1F 00 00 FF FF
  can0  09F8027F   [8]  00 FC FF FF 00 00 FF FF
  can0  09F8017F   [8]  7E 18 B3 22 84 1D 59 0D
  can0  09F11280   [8]  00 67 EF FF 7F 31 05 FD
  can0  0DF11380   [8]  00 FD 2F 1F 00 00 FF FF
  can0  09F8027F   [8]  00 FC FF FF 00 00 FF FF
  can0  09F8017F   [8]  7E 18 B3 22 84 1D 59 0D
  can0  09F11280   [8]  00 6A EF FF 7F 31 05 FD
  can0  0DF11380   [8]  00 6F 8A 1E 00 00 FF FF
  can0  0DF8057F   [8]  C0 2B 00 55 49 A8 0F 30
  can0  0DF8057F   [8]  C1 1D 80 AF FD 2A C3 41
  can0  0DF8057F   [8]  C2 14 08 60 6B 90 92 F1
  can0  0DF8057F   [8]  C3 9B 1B 03 A0 BA 1C 01
  can0  0DF8057F   [8]  C4 00 00 00 00 12 FC 00
  can0  0DF8057F   [8]  C5 68 01 86 01 AC 08 00
  can0  0DF8057F   [8]  C6 00 00 FF FF FF FF FF
  can0  19FA047F   [8]  C0 87 00 FF 0B 0D E8 0A
  can0  19FA047F   [8]  C1 2E 17 10 0E 00 00 00
  can0  19FA047F   [8]  C2 00 F2 0F AE 0F FF 2C
  can0  19FA047F   [8]  C3 D8 0E 00 00 00 00 F2
  can0  19FA047F   [8]  C4 12 68 21 2D 35 1C 0C
  can0  19FA047F   [8]  C5 00 00 00 00 F2 14 2E
  can0  19FA047F   [8]  C6 08 FF 1D 80 0C 00 00
  can0  19FA047F   [8]  C7 00 00 F2 1D 00 00 72
  can0  19FA047F   [8]  C8 50 98 08 00 00 00 00
  can0  19FA047F   [8]  C9 F2 42 FF 0E FF 0E 00
  can0  19FA047F   [8]  CA 00 00 00 00 00 F2 52
  can0  19FA047F   [8]  CB 8B 18 F3 39 00 00 00
  can0  19FA047F   [8]  CC 00 00 00 F2 42 FF 0E
  can0  19FA047F   [8]  CD FF 0E 1C 0C 00 00 00
  can0  19FA047F   [8]  CE 00 F2 52 8B 18 F3 39
  can0  19FA047F   [8]  CF 1C 0C 00 00 00 00 F2
  can0  19FA047F   [8]  D0 43 5C 1F 39 37 54 0B
  can0  19FA047F   [8]  D1 00 00 00 00 F2 17 8A
  can0  19FA047F   [8]  D2 27 8A 54 34 08 00 00
  can0  19FA047F   [8]  D3 00 00 F0 FF FF FF FF
  can0  0DF0107F   [8]  00 F0 55 49 A8 0F 30 1D
  can0  19FA037F   [8]  00 D3 68 01 96 00 FF 7F
  can0  1DF11A7F   [8]  00 F6 FF FF 31 05 FF FF
  can0  0DF11980   [8]  00 FF 7F 67 FC EB F9 FF
  can0  09F8027F   [8]  00 FC FF FF 00 00 FF FF
  can0  09F8017F   [8]  7E 18 B3 22 84 1D 59 0D
  can0  09F11280   [8]  00 6D EF FF 7F 31 05 FD
  can0  0DF11380   [8]  00 80 CC 1E 00 0F 30 1D
  can0  09F8027F   [8]  00 FC FF FF 00 00 FF FF
  can0  09F8017F   [8]  7E 18 B3 22 84 1D 59 0D
  can0  09F11280   [8]  00 6E EF FF 7F 31 05 FD
  can0  0DF11380   [8]  00 C9 D6 1E 00 00 FF FF
  can0  09F8027F   [8]  00 FC FF FF 00 00 FF FF
  can0  09F8017F   [8]  7E 18 B3 22 84 1D 59 0D
  can0  09F11280   [8]  00 6F EF FF 7F 31 05 FD
  can0  0DF11380   [8]  00 AB 99 1E 00 00 FF FF
  can0  09F8027F   [8]  00 FC FF FF 00 00 FF FF
  can0  09F8017F   [8]  7E 18 B3 22 84 1D 59 0D
  can0  09F11280   [8]  00 6F EF FF 7F 31 05 FD
  can0  0DF11380   [8]  00 A1 C1 1E 00 00 FF FF
  can0  09F8027F   [8]  00 FC FF FF 00 00 FF FF
  can0  09F8017F   [8]  7E 18 B3 22 84 1D 59 0D
  can0  09F11280   [8]  00 6E EF FF 7F 31 05 FD
  can0  0DF11380   [8]  00 AB 85 1E 00 00 FF FF
  can0  09F8027F   [8]  00 FC FF FF 00 00 FF FF
  can0  09F8017F   [8]  7E 18 B3 22 84 1D 59 0D
  can0  09F11280   [8]  00 6E EF FF 7F 31 05 FD
  can0  0DF11380   [8]  00 AA 2C 1E 00 00 FF FF
  can0  09F8027F   [8]  00 FC FF FF 00 00 FF FF
  can0  09F8017F   [8]  7E 18 B3 22 84 1D 59 0D
  can0  09F11280   [8]  00 6F EF FF 7F 31 05 FD
  can0  0DF11380   [8]  00 CE 10 1E 00 00 FF FF
  can0  09F8027F   [8]  00 FC FF FF 00 00 FF FF
  can0  09F8017F   [8]  7E 18 B3 22 84 1D 59 0D
  can0  09F11280   [8]  00 70 EF FF 7F 31 05 FD
  can0  0DF11380   [8]  00 23 36 1E 00 00 FF FF
  can0  09F8027F   [8]  00 FC FF FF 00 00 FF FF
  can0  09F8017F   [8]  7E 18 B3 22 84 1D 59 0D
  can0  09F11280   [8]  00 70 EF FF 7F 31 05 FD
  can0  0DF11380   [8]  00 34 6F 1E 00 00 FF FF
  can0  09F8027F   [8]  00 FC FF FF 00 00 FF FF
  can0  09F8017F   [8]  7E 18 B3 22 84 1D 59 0D
  can0  09F11280   [8]  00 6F EF FF 7F 31 05 FD
  can0  0DF11380   [8]  00 04 55 1E 00 00 FF FF
  can0  0DF8057F   [8]  E0 2B 00 55 49 B8 36 30
  can0  0DF8057F   [8]  E1 1D 80 AF FD 2A C3 41
  can0  0DF8057F   [8]  E2 14 08 60 6B 90 92 F1
  can0  0DF8057F   [8]  E3 9B 1B 03 A0 BA 1C 01
  can0  0DF8057F   [8]  E4 00 00 00 00 12 FC 00
  can0  0DF8057F   [8]  E5 68 01 86 01 AC 08 00
  can0  0DF8057F   [8]  E6 00 00 FF FF FF FF FF
  can0  19FA047F   [8]  E0 87 00 FF 0B 0D E8 0A
  can0  19FA047F   [8]  E1 2E 17 10 0E 00 00 00
  can0  19FA047F   [8]  E2 00 F2 0F AE 0F FF 2C
  can0  19FA047F   [8]  E3 D8 0E 00 00 00 00 F2
  can0  19FA047F   [8]  E4 12 68 21 2D 35 1C 0C
  can0  19FA047F   [8]  E5 00 00 00 00 F2 14 2E
  can0  19FA047F   [8]  E6 08 FF 1D 80 0C 00 00
  can0  19FA047F   [8]  E7 00 00 F2 1D 00 00 72
  can0  19FA047F   [8]  E8 50 98 08 00 00 00 00
  can0  19FA047F   [8]  E9 F2 42 FF 0E FF 0E 00
  can0  19FA047F   [8]  EA 00 00 00 00 00 F2 52
  can0  19FA047F   [8]  EB 8B 18 F3 39 00 00 00
  can0  19FA047F   [8]  EC 00 00 00 F2 42 FF 0E
  can0  19FA047F   [8]  ED FF 0E 1C 0C 00 00 00
  can0  19FA047F   [8]  EE 00 F2 52 8B 18 F3 39
  can0  19FA047F   [8]  EF 1C 0C 00 00 00 00 F2
  can0  19FA047F   [8]  F0 43 5C 1F 39 37 54 0B
  can0  19FA047F   [8]  F1 00 00 00 00 F2 17 8A
  can0  19FA047F   [8]  F2 27 8A 54 34 08 00 00
  can0  19FA047F   [8]  F3 00 00 F0 FF FF FF FF
  can0  0DF0107F   [8]  00 F0 55 49 B8 36 30 1D
  can0  19FA037F   [8]  00 D3 68 01 96 00 FF 7F
  can0  1DF11A7F   [8]  00 F6 FF FF 31 05 FF FF
  can0  0DF11980   [8]  00 FF 7F 67 FC D8 F9 FF
  can0  09F8027F   [8]  00 FC FF FF 00 00 FF FF
  can0  09F8017F   [8]  7E 18 B3 22 84 1D 59 0D
  can0  09F11280   [8]  00 6F EF FF 7F 31 05 FD
  can0  0DF11380   [8]  00 55 56 1E 00 36 30 1D
  can0  09F8027F   [8]  00 FC FF FF 00 00 FF FF
  can0  09F8017F   [8]  7E 18 B3 22 84 1D 59 0D
  can0  09F11280   [8]  00 6E EF FF 7F 31 05 FD
  can0  0DF11380   [8]  00 7F 8F 1D 00 00 FF FF
  can0  09F8027F   [8]  00 FC FF FF 00 00 FF FF
  can0  09F8017F   [8]  7E 18 B3 22 84 1D 59 0D
  can0  09F11280   [8]  00 6D EF FF 7F 31 05 FD
  can0  0DF11380   [8]  00 B3 CA 1D 00 00 FF FF
  can0  09F8027F   [8]  00 FC FF FF 00 00 FF FF
  can0  09F8017F   [8]  7E 18 B3 22 84 1D 59 0D
  can0  09F11280   [8]  00 6F EF FF 7F 31 05 FD
  can0  0DF11380   [8]  00 51 1F 1E 00 00 FF FF
  can0  09F8027F   [8]  00 FC FF FF 00 00 FF FF
  can0  09F8017F   [8]  7E 18 B3 22 84 1D 59 0D
  can0  09F11280   [8]  00 71 EF FF 7F 31 05 FD
  can0  0DF11380   [8]  00 18 26 1E 00 00 FF FF
  can0  09F8027F   [8]  00 FC FF FF 00 00 FF FF
  can0  09F8017F   [8]  7E 18 B3 22 84 1D 59 0D
  can0  09F11280   [8]  00 73 EF FF 7F 31 05 FD
  can0  0DF11380   [8]  00 0C 5E 1E 00 00 FF FF
  can0  09F8027F   [8]  00 FC FF FF 00 00 FF FF
  can0  09F8017F   [8]  7E 18 B3 22 84 1D 59 0D
  can0  09F11280   [8]  00 73 EF FF 7F 31 05 FD
  can0  0DF11380   [8]  00 3B 99 1E 00 00 FF FF
  can0  09F8027F   [8]  00 FC FF FF 00 00 FF FF
  can0  09F8017F   [8]  7E 18 B3 22 84 1D 59 0D
  can0  09F11280   [8]  00 72 EF FF 7F 31 05 FD
  can0  0DF11380   [8]  00 85 49 1E 00 00 FF FF
  can0  09F8027F   [8]  00 FC FF FF 00 00 FF FF
  can0  09F8017F   [8]  7E 18 B3 22 84 1D 59 0D
  can0  09F11280   [8]  00 70 EF FF 7F 31 05 FD
  can0  0DF11380   [8]  00 90 A6 1E 00 00 FF FF
  can0  09F8027F   [8]  00 FC FF FF 00 00 FF FF
  can0  09F8017F   [8]  7E 18 B3 22 84 1D 59 0D
  can0  09F11280   [8]  00 6E EF FF 7F 31 05 FD
  can0  0DF11380   [8]  00 F1 2F 1E 00 00 FF FF
  can0  0DF8057F   [8]  00 2B 00 55 49 C8 5D 30
  can0  0DF8057F   [8]  01 1D 80 AF FD 2A C3 41
  can0  0DF8057F   [8]  02 14 08 60 6B 90 92 F1
  can0  0DF8057F   [8]  03 9B 1B 03 A0 BA 1C 01
  can0  0DF8057F   [8]  04 00 00 00 00 12 FC 00
  can0  0DF8057F   [8]  05 68 01 86 01 AC 08 00
  can0  0DF8057F   [8]  06 00 00 FF FF FF FF FF
  can0  19FA047F   [8]  00 87 00 FF 0B 0D E8 0A
  can0  19FA047F   [8]  01 2E 17 10 0E 00 00 00
  can0  19FA047F   [8]  02 00 F2 0F AE 0F FF 2C
  can0  19FA047F   [8]  03 D8 0E 00 00 00 00 F2
  can0  19FA047F   [8]  04 12 68 21 2D 35 1C 0C
  can0  19FA047F   [8]  05 00 00 00 00 F2 14 2E
  can0  19FA047F   [8]  06 08 FF 1D 80 0C 00 00
  can0  19FA047F   [8]  07 00 00 F2 1D 00 00 72
  can0  19FA047F   [8]  08 50 34 08 00 00 00 00
  can0  19FA047F   [8]  09 F2 42 FF 0E FF 0E 00
  can0  19FA047F   [8]  0A 00 00 00 00 00 F2 52
  can0  19FA047F   [8]  0B 8B 18 F3 39 00 00 00
  can0  19FA047F   [8]  0C 00 00 00 F2 42 FF 0E
  can0  19FA047F   [8]  0D FF 0E 1C 0C 00 00 00
  can0  19FA047F   [8]  0E 00 F2 52 8B 18 F3 39
  can0  19FA047F   [8]  0F 1C 0C 00 00 00 00 F2
  can0  19FA047F   [8]  10 43 5C 1F 39 37 54 0B
  can0  19FA047F   [8]  11 00 00 00 00 F2 17 8A
  can0  19FA047F   [8]  12 27 8A 54 34 08 00 00
  can0  19FA047F   [8]  13 00 00 F0 FF FF FF FF
  can0  0DF0107F   [8]  00 F0 55 49 C8 5D 30 1D
  can0  19FA037F   [8]  00 D3 68 01 96 00 FF 7F
  can0  1DF11A7F   [8]  00 F6 FF FF 31 05 FF FF
  can0  0DF11980   [8]  00 FF 7F 6B FC DA F9 FF
  can0  09F8027F   [8]  00 FC FF FF 00 00 FF FF
  can0  09F8017F   [8]  7E 18 B3 22 84 1D 59 0D
  can0  09F11280   [8]  00 6F EF FF 7F 31 05 FD
  can0  0DF11380   [8]  00 07 F8 1D 00 5D 30 1D
  can0  09F8027F   [8]  00 FC FF FF 00 00 FF FF
  can0  09F8017F   [8]  7E 18 B3 22 84 1D 59 0D
  can0  09F11280   [8]  00 6C EF FF 7F 31 05 FD
  can0  0DF11380   [8]  00 A4 18 1E 00 00 FF FF
  can0  09F8027F   [8]  00 FC FF FF 00 00 FF FF
  can0  09F8017F   [8]  7E 18 B3 22 84 1D 59 0D
  can0  09F11280   [8]  00 6C EF FF 7F 31 05 FD
  can0  0DF11380   [8]  00 DC 14 1E 00 00 FF FF
  can0  09F8027F   [8]  00 FC FF FF 00 00 FF FF
  can0  09F8017F   [8]  7E 18 B3 22 84 1D 59 0D
  can0  09F11280   [8]  00 6C EF FF 7F 31 05 FD
  can0  0DF11380   [8]  00 64 EF 1D 00 00 FF FF
  can0  09F8027F   [8]  00 FC FF FF 00 00 FF FF
  can0  09F8017F   [8]  7E 18 B3 22 84 1D 59 0D
  can0  09F11280   [8]  00 6B EF FF 7F 31 05 FD
  can0  0DF11380   [8]  00 6F F8 1D 00 00 FF FF
  can0  09F8027F   [8]  00 FC FF FF 00 00 FF FF
  can0  09F8017F   [8]  7E 18 B3 22 84 1D 59 0D
  can0  09F11280   [8]  00 69 EF FF 7F 31 05 FD
  can0  0DF11380   [8]  00 79 FD 1D 00 00 FF FF
  can0  09F8027F   [8]  00 FC FF FF 00 00 FF FF
  can0  09F8017F   [8]  7E 18 B3 22 84 1D 59 0D
  can0  09F11280   [8]  00 68 EF FF 7F 31 05 FD
  can0  0DF11380   [8]  00 17 6A 1D 00 00 FF FF
  can0  09F8027F   [8]  00 FC FF FF 00 00 FF FF
  can0  09F8017F   [8]  7E 18 B3 22 84 1D 59 0D
  can0  09F11280   [8]  00 68 EF FF 7F 31 05 FD
  can0  0DF11380   [8]  00 A5 B1 1D 00 00 FF FF
  can0  09F8027F   [8]  00 FC FF FF 00 00 FF FF
  can0  09F8017F   [8]  7E 18 B3 22 84 1D 59 0D
  can0  09F11280   [8]  00 66 EF FF 7F 31 05 FD
  can0  0DF11380   [8]  00 8D E1 1D 00 00 FF FF
  can0  09F8027F   [8]  00 FC FF FF 00 00 FF FF
  can0  09F8017F   [8]  7E 18 B3 22 84 1D 59 0D
  can0  09F11280   [8]  00 65 EF FF 7F 31 05 FD
  can0  0DF11380   [8]  00 00 E6 1D 00 00 FF FF
  can0  0DF8057F   [8]  20 2B 00 55 49 D8 84 30
  can0  0DF8057F   [8]  21 1D 80 AF FD 2A C3 41
  can0  0DF8057F   [8]  22 14 08 60 6B 90 92 F1
  can0  0DF8057F   [8]  23 9B 1B 03 A0 BA 1C 01
  can0  0DF8057F   [8]  24 00 00 00 00 12 FC 00
  can0  0DF8057F   [8]  25 68 01 86 01 AC 08 00
  can0  0DF8057F   [8]  26 00 00 FF FF FF FF FF
  can0  19FA047F   [8]  20 87 00 FF 0B 0D E8 0A
  can0  19FA047F   [8]  21 2E 17 10 0E 00 00 00
  can0  19FA047F   [8]  22 00 F2 0F AE 0F FF 2C
  can0  19FA047F   [8]  23 D8 0E 00 00 00 00 F2
  can0  19FA047F   [8]  24 12 68 21 2D 35 1C 0C
  can0  19FA047F   [8]  25 00 00 00 00 F2 14 2E
  can0  19FA047F   [8]  26 08 FF 1D 80 0C 00 00
  can0  19FA047F   [8]  27 00 00 F2 1D 00 00 72
  can0  19FA047F   [8]  28 50 34 08 00 00 00 00
  can0  19FA047F   [8]  29 F2 42 FF 0E FF 0E 00
  can0  19FA047F   [8]  2A 00 00 00 00 00 F2 52
  can0  19FA047F   [8]  2B 8B 18 F3 39 00 00 00
  can0  19FA047F   [8]  2C 00 00 00 F2 42 FF 0E
  can0  19FA047F   [8]  2D FF 0E 1C 0C 00 00 00
  can0  19FA047F   [8]  2E 00 F2 52 8B 18 F3 39
  can0  19FA047F   [8]  2F 1C 0C 00 00 00 00 F2
  can0  19FA047F   [8]  30 43 5C 1F 39 37 54 0B
  can0  19FA047F   [8]  31 00 00 00 00 F2 17 8A
  can0  19FA047F   [8]  32 27 8A 54 34 08 00 00
  can0  19FA047F   [8]  33 00 00 F0 FF FF FF FF
  can0  0DF0107F   [8]  00 F0 55 49 D8 84 30 1D
  can0  19FA037F   [8]  00 D3 68 01 96 00 FF 7F
  can0  1DF11A7F   [8]  00 F6 FF FF 31 05 FF FF
  can0  0DF11980   [8]  00 FF 7F 73 FC DE F9 FF
  can0  09F8027F   [8]  00 FC FF FF 00 00 FF FF
  can0  09F8017F   [8]  7E 18 B3 22 84 1D 59 0D
  can0  09F11280   [8]  00 65 EF FF 7F 31 05 FD
  can0  0DF11380   [8]  00 BB CE 1D 00 84 30 1D
